
开继电器1：
01 06 00 00 00 01 48 0A
关继电器1：
01 06 00 00 00 00 89 CA

开继电器2：
01 06 00 01 00 01 19 CA
关继电器2：
01 06 00 01 00 00 D8 0A 

开继电器3：
01 06 00 02 00 01 E9 CA
关继电器3：
01 06 00 02 00 00 28 0A 

开继电器4：
01 06 00 03 00 01 B8 0A 
关继电器4：
01 06 00 03 00 00 79 CA 

开继电器5：
01 06 00 04 00 01 09 CB 
关继电器5：
01 06 00 04 00 00 C8 0B

开继电器6：
01 06 00 05 00 01 58 0B  
关继电器6：
01 06 00 05 00 00 99 CB

开继电器7：
01 06 00 06 00 01 A8 0B  
关继电器7：
01 06 00 06 00 00 69 CB 

开继电器8：
01 06 00 07 00 01 F9 CB  
关继电器8：
01 06 00 07 00 00 38 0B

9-48路：开
01 06 00 08 00 01 C9 C8 

01 06 00 09 00 01 98 08 

01 06 00 0A 00 01 68 08
 
01 06 00 0B 00 01 39 C8
 
01 06 00 0C 00 01 88 09
 
01 06 00 0D 00 01 D9 C9
 
01 06 00 0E 00 01 29 C9 

01 06 00 0F 00 01 78 09 

01 06 00 10 00 01 49 CF 

01 06 00 11 00 01 18 0F
 
01 06 00 12 00 01 E8 0F 

01 06 00 13 00 01 B9 CF 

01 06 00 14 00 01 08 0E 

01 06 00 15 00 01 59 CE 

01 06 00 16 00 01 A9 CE
 
01 06 00 17 00 01 F8 0E 

01 06 00 18 00 01 C8 0D
 
01 06 00 19 00 01 99 CD 

01 06 00 1A 00 01 69 CD 

01 06 00 1B 00 01 38 0D 

01 06 00 1C 00 01 89 CC 

01 06 00 1D 00 01 D8 0C 

01 06 00 1E 00 01 28 0C 

01 06 00 1F 00 01 79 CC 

01 06 00 20 00 01 49 C0 

01 06 00 21 00 01 18 00 

01 06 00 22 00 01 E8 00
 
01 06 00 23 00 01 B9 C0
 
01 06 00 24 00 01 08 01 

01 06 00 25 00 01 59 C1 

01 06 00 26 00 01 A9 C1 

01 06 00 27 00 01 F8 01 

01 06 00 28 00 01 C8 02 

01 06 00 29 00 01 99 C2 

01 06 00 2A 00 01 69 C2 

01 06 00 2B 00 01 38 02
 
01 06 00 2C 00 01 89 C3 

01 06 00 2D 00 01 D8 03 

01 06 00 2E 00 01 28 03 

01 06 00 2F 00 01 79 C3 

9-48路：关
01 06 00 08 00 00 08 08 

01 06 00 09 00 00 59 C8 

01 06 00 0A 00 00 A9 C8
 
01 06 00 0B 00 00 F8 08 

01 06 00 0C 00 00 49 C9 

01 06 00 0D 00 00 18 09
 
01 06 00 0E 00 00 E8 09
 
01 06 00 0F 00 00 B9 C9
 
01 06 00 10 00 00 88 0F 

01 06 00 11 00 00 D9 CF 

01 06 00 12 00 00 29 CF
 
01 06 00 13 00 00 78 0F 

01 06 00 14 00 00 C9 CE
 
01 06 00 15 00 00 98 0E
 
01 06 00 16 00 00 68 0E
 
01 06 00 17 00 00 39 CE 

01 06 00 18 00 00 09 CD 

01 06 00 19 00 00 58 0D 

01 06 00 1A 00 00 A8 0D 

01 06 00 1B 00 00 F9 CD
 
01 06 00 1C 00 00 48 0C 

01 06 00 1D 00 00 19 CC 

01 06 00 1E 00 00 E9 CC
 
01 06 00 1F 00 00 B8 0C

01 06 00 20 00 00 88 00 

01 06 00 21 00 00 D9 C0 

01 06 00 22 00 00 29 C0
 
01 06 00 23 00 00 78 00
 
01 06 00 24 00 00 C9 C1

01 06 00 25 00 00 98 01 

01 06 00 26 00 00 68 01 

01 06 00 27 00 00 39 C1 

01 06 00 28 00 00 09 C2
 
01 06 00 29 00 00 58 02 

01 06 00 2A 00 00 A8 02 

01 06 00 2B 00 00 F9 C2 

01 06 00 2C 00 00 48 03 

01 06 00 2D 00 00 19 C3 

01 06 00 2E 00 00 E9 C3 

01 06 00 2F 00 00 B8 03 

全开
01 06 00 34 00 01 09 C4
全关
01 06 00 34 00 00 C8 04

读1路输入状态
01 04 00 00 00 01 31 CA 
返回指令
01 04 02 00 01 78 F0（触发）
01 04 02 00 00 B9 30 （未触发）

读2路输入状态
01 04 00 01 00 01 60 0A

读3路输入状态
01 04 00 02 00 01 90 0A 

读4路输入状态
01 04 00 03 00 01 C1 CA

读5路输入状态
01 04 00 04 00 01 70 0B

读6路输入状态
01 04 00 05 00 01 21 CB

读7路输入状态
01 04 00 06 00 01 D1 CB

读8路输入状态
01 04 00 07 00 01 80 0B

读9-48路
01 04 00 08 00 01 B0 08 

01 04 00 09 00 01 E1 C8 

01 04 00 0A 00 01 11 C8 

01 04 00 0B 00 01 40 08 

01 04 00 0C 00 01 F1 C9 

01 04 00 0D 00 01 A0 09 

01 04 00 0E 00 01 50 09 

01 04 00 0F 00 01 01 C9
 
01 04 00 10 00 01 30 0F
 
01 04 00 11 00 01 61 CF

01 04 00 12 00 01 91 CF
 
01 04 00 13 00 01 C0 0F
 
01 04 00 14 00 01 71 CE 

01 04 00 15 00 01 20 0E 

01 04 00 16 00 01 D0 0E 

01 04 00 17 00 01 81 CE 

01 04 00 18 00 01 B1 CD 

01 04 00 19 00 01 E0 0D 

01 04 00 1A 00 01 10 0D 

01 04 00 1B 00 01 41 CD 

01 04 00 1C 00 01 F0 0C 

01 04 00 1D 00 01 A1 CC 

01 04 00 1E 00 01 51 CC 

01 04 00 1F 00 01 00 0C 

01 04 00 20 00 01 30 00 

01 04 00 21 00 01 61 C0 

01 04 00 22 00 01 91 C0 

01 04 00 23 00 01 C0 00 

01 04 00 24 00 01 71 C1 

01 04 00 25 00 01 20 01 

01 04 00 26 00 01 D0 01 

01 04 00 27 00 01 81 C1 

01 04 00 28 00 01 B1 C2 

01 04 00 29 00 01 E0 02 

01 04 00 2A 00 01 10 02
 
01 04 00 2B 00 01 41 C2 

01 04 00 2C 00 01 F0 03 

01 04 00 2D 00 01 A1 C3
 
01 04 00 2E 00 01 51 C3 

01 04 00 2F 00 01 00 03 

读继电器状态1-48路
01 03 00 00 00 01 84 0A 

返回指令
01 03 02 00 01 79 84（继电器开）
01 03 02 00 00 B8 44 （继电器关）

2-48路
01 03 00 01 00 01 D5 CA 
01 03 00 02 00 01 25 CA 
01 03 00 03 00 01 74 0A 
01 03 00 04 00 01 C5 CB 
01 03 00 05 00 01 94 0B 
01 03 00 06 00 01 64 0B 
01 03 00 07 00 01 35 CB 
01 03 00 08 00 01 05 C8 
01 03 00 09 00 01 54 08 
01 03 00 0A 00 01 A4 08 
01 03 00 0B 00 01 F5 C8 
01 03 00 0C 00 01 44 09 
01 03 00 0D 00 01 15 C9 
01 03 00 0E 00 01 E5 C9 
01 03 00 0F 00 01 B4 09 
01 03 00 10 00 01 85 CF 
01 03 00 11 00 01 D4 0F 
01 03 00 12 00 01 24 0F 
01 03 00 13 00 01 75 CF 
01 03 00 14 00 01 C4 0E 
01 03 00 15 00 01 95 CE 
01 03 00 16 00 01 65 CE 
01 03 00 17 00 01 34 0E 
01 03 00 18 00 01 04 0D 
01 03 00 19 00 01 55 CD 
01 03 00 1A 00 01 A5 CD 
01 03 00 1B 00 01 F4 0D 
01 03 00 1C 00 01 45 CC 
01 03 00 1D 00 01 14 0C 
01 03 00 1E 00 01 E4 0C 
01 03 00 1F 00 01 B5 CC 
01 03 00 20 00 01 85 C0 
01 03 00 21 00 01 D4 00 
01 03 00 22 00 01 24 00 
01 03 00 23 00 01 75 C0 
01 03 00 24 00 01 C4 01 
01 03 00 25 00 01 95 C1 
01 03 00 26 00 01 65 C1 
01 03 00 27 00 01 34 01 
01 03 00 28 00 01 04 02 
01 03 00 29 00 01 55 C2 
01 03 00 2A 00 01 A5 C2 
01 03 00 2B 00 01 F4 02 
01 03 00 2C 00 01 45 C3 
01 03 00 2D 00 01 14 03 
01 03 00 2E 00 01 E4 03 
01 03 00 2F 00 01 B5 C3 












